
**** 04/07/25 15:20:13 ******* PSpice Lite (March 2016) ******* ID# 10813 ****

 Kolos 2


 ****     CIRCUIT DESCRIPTION


******************************************************************************




.LIB "EVAL_TOS.LIB"

Xzener 0 2 ZENER_II
Xtrans IN1 0 OUT1 OUT2 TX_II

V1 3 0 SIN 0 120 60
Rin 3 IN1 1f

D1 OUT1 1 D1N4148
D2 0 OUT2 D1N4148
D3 OUT2 1 D1N4148
D4 0 OUT1 D1N4148

C1 1 0 {c}

R1 1 2 200
RL 2 0 1k

.PARAM c = 6.4m
*.PARAM c = 500u
*.STEP PARAM c 6m 7m 0.1m
.TRAN 1m 5.1 5 100u
.PROBE
.END

**** 04/07/25 15:20:13 ******* PSpice Lite (March 2016) ******* ID# 10813 ****

 Kolos 2


 ****     Diode MODEL PARAMETERS


******************************************************************************




               D1N4148         Xzener.mA_DIODA 
          IS    2.682000E-09  100.000000E-12 
           N    1.836           1.7          
         ISR    1.565000E-09                 
         IKF     .04417                      
          BV  100                            
         IBV  100.000000E-06                 
          RS     .5664                       
          TT   11.540000E-09                 
         CJO    4.000000E-12                 
          VJ     .5                          
           M     .3333                       


               Xzener.idealna_DIODA 
          IS  100.000000E-12 
           N     .01         


**** 04/07/25 15:20:13 ******* PSpice Lite (March 2016) ******* ID# 10813 ****

 Kolos 2


 ****     INITIAL TRANSIENT SOLUTION       TEMPERATURE =   27.000 DEG C


******************************************************************************



 NODE   VOLTAGE     NODE   VOLTAGE     NODE   VOLTAGE     NODE   VOLTAGE


(    1) 106.7E-09  (    2) 106.7E-09  (    3)    0.0000  (  IN1)    0.0000      

( OUT1) 53.34E-09  ( OUT2) 53.34E-09  (Xzener.Z3)    6.7000                     

(Xzener.Z4)-2.134E-09                 




    VOLTAGE SOURCE CURRENTS
    NAME         CURRENT

    V1           0.000E+00
    Xzener.VZ   -1.067E-10

    TOTAL POWER DISSIPATION   7.15E-10  WATTS



          JOB CONCLUDED

**** 04/07/25 15:20:13 ******* PSpice Lite (March 2016) ******* ID# 10813 ****

 Kolos 2


 ****     JOB STATISTICS SUMMARY


******************************************************************************



  Total job time (using Solver 1)   =        1.14
