
**** 05/03/25 20:02:17 ******* PSpice Lite (March 2016) ******* ID# 10813 ****

 Maksiu


 ****     CIRCUIT DESCRIPTION


******************************************************************************




R1 1 0 39
R2 0 5 18
R3 3 4 72

I1 4 0 DC 0.6
V1 1 2 DC 10
H1 2 3 VA 40

VA 2 5 DC 0

Ith 0 3 1

.OP
.DC V1 10 10 1
.PRINT DC V(1,3) V(0,3)
.TF V(3) Ith
.END

**** 05/03/25 20:02:17 ******* PSpice Lite (March 2016) ******* ID# 10813 ****

 Maksiu


 ****     DC TRANSFER CURVES               TEMPERATURE =   27.000 DEG C


******************************************************************************



  V1          V(1,3)      V(0,3)      

   1.000E+01   1.393E+01   2.161E+00



**** 05/03/25 20:02:17 ******* PSpice Lite (March 2016) ******* ID# 10813 ****

 Maksiu


 ****     SMALL SIGNAL BIAS SOLUTION       TEMPERATURE =   27.000 DEG C


******************************************************************************



 NODE   VOLTAGE     NODE   VOLTAGE     NODE   VOLTAGE     NODE   VOLTAGE


(    1)   11.7680  (    2)    1.7684  (    3)   -2.1614  (    4)  -45.3610      

(    5)    1.7684  




    VOLTAGE SOURCE CURRENTS
    NAME         CURRENT

    V1          -3.018E-01
    VA           9.825E-02

    TOTAL POWER DISSIPATION   3.02E+00  WATTS


**** 05/03/25 20:02:17 ******* PSpice Lite (March 2016) ******* ID# 10813 ****

 Maksiu


 ****     OPERATING POINT INFORMATION      TEMPERATURE =   27.000 DEG C


******************************************************************************






**** CURRENT-CONTROLLED VOLTAGE SOURCES


NAME         H1        
V-SOURCE     3.930E+00
I-SOURCE    -4.000E-01




 ****     SMALL-SIGNAL CHARACTERISTICS


      V(3)/Ith = -1.084E-09

      INPUT RESISTANCE AT Ith = -1.505E+01

      OUTPUT RESISTANCE AT V(3) =  7.200E+01


          JOB CONCLUDED

**** 05/03/25 20:02:17 ******* PSpice Lite (March 2016) ******* ID# 10813 ****

 Maksiu


 ****     JOB STATISTICS SUMMARY


******************************************************************************



  Total job time (using Solver 1)   =        0.00
